
T015C 000:304 SEGGER J-Link V4.96d Log File (0001ms, 0274ms total)
T015C 000:304 DLL Compiled: Jan 29 2015 11:45:37 (0001ms, 0274ms total)
T015C 000:304 Logging started @ 2017-01-13 15:01 (0001ms, 0274ms total)
T015C 000:305 JLINK_SetWarnOutHandler(...) (0000ms, 0274ms total)
T015C 000:305 JLINK_OpenEx(...)
Firmware: J-Link ARM V8 compiled Nov 28 2014 13:44:46
Hardware: V8.00
Feature(s): RDI,FlashDL,FlashBP,JFlash,GDBFull  returns O.K. (0269ms, 0543ms total)
T015C 000:574 JLINK_SetErrorOutHandler(...) (0000ms, 0543ms total)
T015C 000:574 JLINK_ExecCommand("ProjectFile = "E:\开关继电器阵列\Fireware\V1.0\rcra1.0\MDK-ARM\JLinkSettings.ini"", ...)  returns 0x00 (0000ms, 0543ms total)
T015C 000:578 JLINK_ExecCommand("Device = STM32F030F4", ...)Device "STM32F030F4" selected.  returns 0x00 (0003ms, 0546ms total)
T015C 000:581 JLINK_ExecCommand("DisableConnectionTimeout", ...)  returns 0x01 (0000ms, 0546ms total)
T015C 000:581 JLINK_GetHardwareVersion()  returns 0x13880 (0000ms, 0546ms total)
T015C 000:581 JLINK_GetDLLVersion()  returns 49604 (0000ms, 0546ms total)
T015C 000:581 JLINK_GetFirmwareString(...) (0000ms, 0546ms total)
T015C 000:587 JLINK_GetDLLVersion()  returns 49604 (0000ms, 0546ms total)
T015C 000:587 JLINK_GetCompileDateTime() (0000ms, 0546ms total)
T015C 000:588 JLINK_GetFirmwareString(...) (0000ms, 0546ms total)
T015C 000:590 JLINK_GetHardwareVersion()  returns 0x13880 (0000ms, 0546ms total)
T015C 000:594 JLINK_TIF_Select(JLINKARM_TIF_SWD)  returns 0x00 (0004ms, 0550ms total)
T015C 000:598 JLINK_SetSpeed(10000) (0002ms, 0552ms total)
T015C 000:600 JLINK_GetId() >0x108 TIF>Found SWD-DP with ID 0x0BB11477 >0x0D TIF> >0x28 TIF> >0x0D TIF> >0x28 TIF> >0x0D TIF> >0x21 TIF> >0x0D TIF> >0x28 TIF> >0x0D TIF> >0x28 TIF> >0x0D TIF> >0x28 TIF> >0x0D TIF> >0x21 TIF> >0x0D TIF> >0x21 TIF> >0x0D TIF> >0x28 TIF> >0x0D TIF> >0x21 TIF> >0x0D TIF> >0x21 TIF> >0x0D TIF> >0x28 TIF> >0x0D TIF> >0x21 TIF> >0x0D TIF> >0x21 TIF> >0x0D TIF> >0x28 TIF> >0x0D TIF> >0x28 TIF> >0x0D TIF> >0x28 TIF> >0x0D TIF> >0x21 TIF> >0x0D TIF> >0x21 TIF> >0x0D TIF>
 >0x28 TIF> >0x0D TIF> >0x28 TIF> >0x108 TIF>Found SWD-DP with ID 0x0BB11477 >0x0D TIF> >0x21 TIF> >0x0D TIF> >0x28 TIF> >0x0D TIF> >0x28 TIF> >0x0D TIF> >0x21 TIF> >0x0D TIF> >0x28 TIF> >0x0D TIF> >0x21 TIF> >0x0D TIF> >0x21 TIF> >0x0D TIF> >0x21 TIF> >0x0D TIF> >0x21 TIF> >0x0D TIF> >0x28 TIF> >0x0D TIF> >0x28 TIF> >0x0D TIF> >0x21 TIF> >0x0D TIF> >0x28 TIF> >0x0D TIF> >0x28 TIF> >0x0D TIF> >0x28 TIF> >0x0D TIF> >0x21 TIF> >0x0D TIF> >0x21 TIF> >0x0D TIF> >0x28 TIF> >0x0D TIF> >0x21 TIF> >0x0D TIF>
 >0x21 TIF>Found Cortex-M0 r0p0, Little endian. -- CPU_WriteMem(4 bytes @ 0xE0002000) -- CPU_ReadMem(4 bytes @ 0xE000EDF0) -- CPU_ReadMem(4 bytes @ 0xE0002000)FPUnit: 4 code (BP) slots and 0 literal slots -- CPU_ReadMem(4 bytes @ 0xE000EDFC) -- CPU_ReadMem(4 bytes @ 0xE0001000) -- CPU_WriteMem(4 bytes @ 0xE0001000) -- CPU_ReadMem(4 bytes @ 0xE00FF018) -- CPU_WriteMem(4096 bytes @ 0x20000000)
                JLINK_Go() (0001ms, 0001ms total)
               >0x0D TIF> >0x21 TIF>  returns 0x0BB11477 (0136ms, 0688ms total)
T015C 000:736 JLINK_GetDLLVersion()  returns 49604 (0000ms, 0688ms total)
T015C 000:736 JLINK_CORE_GetFound()  returns 0x60000FF (0000ms, 0688ms total)
T015C 000:736 JLINK_GetDebugInfo(0x100) -- Value=0xE00FF003  returns 0x00 (0000ms, 0688ms total)
T015C 000:738 JLINK_ReadMem (0xE00FF000, 0x0020 Bytes, ...) -- CPU is running -- CPU_ReadMem(32 bytes @ 0xE00FF000) - Data: 03 F0 F0 FF 03 20 F0 FF 03 30 F0 FF 00 00 00 00 ...  returns 0x00 (0001ms, 0689ms total)
T015C 000:739 JLINK_ReadMem (0xE000EFF0, 0x0010 Bytes, ...) -- CPU is running -- CPU_ReadMem(16 bytes @ 0xE000EFF0) - Data: 0D 00 00 00 E0 00 00 00 05 00 00 00 B1 00 00 00  returns 0x00 (0001ms, 0690ms total)
T015C 000:740 JLINK_ReadMem (0xE000EFD0, 0x0020 Bytes, ...) -- CPU is running -- CPU_ReadMem(32 bytes @ 0xE000EFD0) - Data: 04 00 00 00 00 00 00 00 00 00 00 00 00 00 00 00 ...  returns 0x00 (0001ms, 0691ms total)
T015C 000:741 JLINK_ReadMem (0xE0001FF0, 0x0010 Bytes, ...) -- CPU is running -- CPU_ReadMem(16 bytes @ 0xE0001FF0) - Data: 0D 00 00 00 E0 00 00 00 05 00 00 00 B1 00 00 00  returns 0x00 (0001ms, 0692ms total)
T015C 000:742 JLINK_ReadMem (0xE0001FD0, 0x0020 Bytes, ...) -- CPU is running -- CPU_ReadMem(32 bytes @ 0xE0001FD0) - Data: 04 00 00 00 00 00 00 00 00 00 00 00 00 00 00 00 ...  returns 0x00 (0001ms, 0693ms total)
T015C 000:743 JLINK_ReadMem (0xE0002FF0, 0x0010 Bytes, ...) -- CPU is running -- CPU_ReadMem(16 bytes @ 0xE0002FF0) - Data: 0D 00 00 00 E0 00 00 00 05 00 00 00 B1 00 00 00  returns 0x00 (0001ms, 0694ms total)
T015C 000:744 JLINK_ReadMem (0xE0002FD0, 0x0020 Bytes, ...) -- CPU is running -- CPU_ReadMem(32 bytes @ 0xE0002FD0) - Data: 04 00 00 00 00 00 00 00 00 00 00 00 00 00 00 00 ...  returns 0x00 (0001ms, 0695ms total)
T015C 000:745 JLINK_ReadMemU32(0xE000ED00, 0x0001 Items, ...) -- CPU is running -- CPU_ReadMem(4 bytes @ 0xE000ED00) - Data: 00 C2 0C 41  returns 0x01 (0001ms, 0696ms total)
T015C 000:746 JLINK_SetResetType(JLINKARM_RESET_TYPE_NORMAL)  returns JLINKARM_RESET_TYPE_NORMAL (0000ms, 0696ms total)
T015C 000:746 JLINK_Reset() -- CPU_ReadMem(4 bytes @ 0x20000000) -- CPU_WriteMem(4 bytes @ 0x20000000) -- CPU is running -- CPU_WriteMem(4 bytes @ 0xE000EDF0) -- CPU is running -- CPU_WriteMem(4 bytes @ 0xE000EDFC) >0x35 TIF> -- CPU is running -- CPU_WriteMem(4 bytes @ 0xE000ED0C) -- CPU is running -- CPU_ReadMem(4 bytes @ 0xE000EDF0) -- CPU is running -- CPU_ReadMem(4 bytes @ 0xE000EDF0) -- CPU is running -- CPU_WriteMem(4 bytes @ 0xE000EDF0) -- CPU is running -- CPU_WriteMem(4 bytes @ 0xE000EDFC)
 -- CPU is running -- CPU_ReadMem(4 bytes @ 0xE000EDF0) -- CPU_WriteMem(4 bytes @ 0xE0002000) -- CPU_ReadMem(4 bytes @ 0xE000EDFC) -- CPU_ReadMem(4 bytes @ 0xE0001000) -- CPU_WriteMem(4 bytes @ 0xE0001000) (0025ms, 0721ms total)
T015C 000:771 JLINK_Halt()  returns 0x00 (0000ms, 0721ms total)
T015C 000:771 JLINK_IsHalted()  returns TRUE (0000ms, 0721ms total)
T015C 000:771 JLINK_ReadMemU32(0xE000EDF0, 0x0001 Items, ...) -- CPU_ReadMem(4 bytes @ 0xE000EDF0) - Data: 03 00 03 00  returns 0x01 (0001ms, 0722ms total)
T015C 000:772 JLINK_WriteU32(0xE000EDF0, 0xA05F0003) -- CPU_WriteMem(4 bytes @ 0xE000EDF0)  returns 0x00 (0001ms, 0723ms total)
T015C 000:773 JLINK_WriteU32(0xE000EDFC, 0x01000000) -- CPU_WriteMem(4 bytes @ 0xE000EDFC)  returns 0x00 (0001ms, 0724ms total)
T015C 000:781 JLINK_GetHWStatus(...)  returns 0x00 (0000ms, 0724ms total)
T015C 000:785 JLINK_GetNumBPUnits(Type = 0xFFFFFF00)  returns 0x04 (0000ms, 0724ms total)
T015C 000:785 JLINK_GetNumBPUnits(Type = 0xF0)  returns 0x2000 (0000ms, 0724ms total)
T015C 000:785 JLINK_GetNumWPUnits()  returns 0x02 (0000ms, 0724ms total)
T015C 000:789 JLINK_GetSpeed()  returns 0xFA0 (0000ms, 0724ms total)
T015C 000:792 JLINK_ReadMemU32(0xE000E004, 0x0001 Items, ...) -- CPU_ReadMem(4 bytes @ 0xE000E004) - Data: 00 00 00 00  returns 0x01 (0000ms, 0724ms total)
T015C 000:792 JLINK_Halt()  returns 0x00 (0000ms, 0724ms total)
T015C 000:792 JLINK_IsHalted()  returns TRUE (0000ms, 0724ms total)
T015C 000:794 JLINK_WriteMem(0x20000000, 0x0170 Bytes, ...) - Data: 00 BE 0A E0 0D 78 2D 06 68 40 08 24 40 00 00 D3 ... -- CPU_WriteMem(368 bytes @ 0x20000000)  returns 0x170 (0003ms, 0727ms total)
T015C 000:797 JLINK_WriteReg(R0, 0x08000000)  returns 0x00 (0000ms, 0727ms total)
T015C 000:797 JLINK_WriteReg(R1, 0x02DC6C00)  returns 0x00 (0000ms, 0727ms total)
T015C 000:797 JLINK_WriteReg(R2, 0x00000001)  returns 0x00 (0000ms, 0727ms total)
T015C 000:797 JLINK_WriteReg(R3, 0x00000000)  returns 0x00 (0000ms, 0727ms total)
T015C 000:797 JLINK_WriteReg(R4, 0x00000000)  returns 0x00 (0000ms, 0727ms total)
T015C 000:797 JLINK_WriteReg(R5, 0x00000000)  returns 0x00 (0000ms, 0727ms total)
T015C 000:797 JLINK_WriteReg(R6, 0x00000000)  returns 0x00 (0000ms, 0727ms total)
T015C 000:797 JLINK_WriteReg(R7, 0x00000000)  returns 0x00 (0000ms, 0727ms total)
T015C 000:797 JLINK_WriteReg(R8, 0x00000000)  returns 0x00 (0000ms, 0727ms total)
T015C 000:797 JLINK_WriteReg(R9, 0x2000016C)  returns 0x00 (0000ms, 0727ms total)
T015C 000:797 JLINK_WriteReg(R10, 0x00000000)  returns 0x00 (0000ms, 0727ms total)
T015C 000:797 JLINK_WriteReg(R11, 0x00000000)  returns 0x00 (0000ms, 0727ms total)
T015C 000:797 JLINK_WriteReg(R12, 0x00000000)  returns 0x00 (0000ms, 0727ms total)
T015C 000:797 JLINK_WriteReg(R13 (SP), 0x20001000)  returns 0x00 (0000ms, 0727ms total)
T015C 000:797 JLINK_WriteReg(R14, 0x20000001)  returns 0x00 (0000ms, 0727ms total)
T015C 000:797 JLINK_WriteReg(R15 (PC), 0x20000038)  returns 0x00 (0000ms, 0727ms total)
T015C 000:797 JLINK_WriteReg(XPSR, 0x01000000)  returns 0x00 (0000ms, 0727ms total)
T015C 000:797 JLINK_WriteReg(MSP, 0x20001000)  returns 0x00 (0000ms, 0727ms total)
T015C 000:797 JLINK_WriteReg(PSP, 0x20001000)  returns 0x00 (0000ms, 0727ms total)
T015C 000:797 JLINK_WriteReg(CFBP, 0x00000000)  returns 0x00 (0000ms, 0727ms total)
T015C 000:797 JLINK_SetBPEx(Addr = 0x20000000, Type = 0xFFFFFFF2) -- CPU_ReadMem(2 bytes @ 0x20000000)  returns 0x00000001 (0001ms, 0728ms total)
T015C 000:798 JLINK_Go() -- CPU_WriteMem(2 bytes @ 0x20000000) -- CPU_WriteMem(4 bytes @ 0xE0002008) -- CPU_WriteMem(4 bytes @ 0xE000200C) -- CPU_WriteMem(4 bytes @ 0xE0002010) -- CPU_WriteMem(4 bytes @ 0xE0002014) -- CPU_WriteMem(4 bytes @ 0xE0001004) (0009ms, 0737ms total)
T015C 000:807 JLINK_IsHalted() -- CPU_ReadMem(2 bytes @ 0x20000000)  returns TRUE (0004ms, 0741ms total)
T015C 000:811 JLINK_ReadReg(R15 (PC))  returns 0x20000000 (0000ms, 0737ms total)
T015C 000:811 JLINK_ClrBPEx(BPHandle = 0x00000001)  returns 0x00 (0000ms, 0737ms total)
T015C 000:811 JLINK_ReadReg(R0)  returns 0x00000000 (0000ms, 0737ms total)
T015C 000:811 JLINK_WriteReg(R0, 0x08000000)  returns 0x00 (0001ms, 0738ms total)
T015C 000:812 JLINK_WriteReg(R1, 0x02DC6C00)  returns 0x00 (0000ms, 0738ms total)
T015C 000:812 JLINK_WriteReg(R2, 0x00000001)  returns 0x00 (0000ms, 0738ms total)
T015C 000:812 JLINK_WriteReg(R3, 0x00000000)  returns 0x00 (0000ms, 0738ms total)
T015C 000:812 JLINK_WriteReg(R4, 0x00000000)  returns 0x00 (0000ms, 0738ms total)
T015C 000:812 JLINK_WriteReg(R5, 0x00000000)  returns 0x00 (0000ms, 0738ms total)
T015C 000:812 JLINK_WriteReg(R6, 0x00000000)  returns 0x00 (0000ms, 0738ms total)
T015C 000:812 JLINK_WriteReg(R7, 0x00000000)  returns 0x00 (0000ms, 0738ms total)
T015C 000:812 JLINK_WriteReg(R8, 0x00000000)  returns 0x00 (0000ms, 0738ms total)
T015C 000:812 JLINK_WriteReg(R9, 0x2000016C)  returns 0x00 (0000ms, 0738ms total)
T015C 000:812 JLINK_WriteReg(R10, 0x00000000)  returns 0x00 (0000ms, 0738ms total)
T015C 000:812 JLINK_WriteReg(R11, 0x00000000)  returns 0x00 (0000ms, 0738ms total)
T015C 000:812 JLINK_WriteReg(R12, 0x00000000)  returns 0x00 (0000ms, 0738ms total)
T015C 000:812 JLINK_WriteReg(R13 (SP), 0x20001000)  returns 0x00 (0000ms, 0738ms total)
T015C 000:812 JLINK_WriteReg(R14, 0x20000001)  returns 0x00 (0000ms, 0738ms total)
T015C 000:812 JLINK_WriteReg(R15 (PC), 0x20000074)  returns 0x00 (0000ms, 0738ms total)
T015C 000:812 JLINK_WriteReg(XPSR, 0x01000000)  returns 0x00 (0000ms, 0738ms total)
T015C 000:812 JLINK_WriteReg(MSP, 0x20001000)  returns 0x00 (0000ms, 0738ms total)
T015C 000:812 JLINK_WriteReg(PSP, 0x20001000)  returns 0x00 (0000ms, 0738ms total)
T015C 000:812 JLINK_WriteReg(CFBP, 0x00000000)  returns 0x00 (0000ms, 0738ms total)
T015C 000:812 JLINK_SetBPEx(Addr = 0x20000000, Type = 0xFFFFFFF2)  returns 0x00000002 (0000ms, 0738ms total)
T015C 000:812 JLINK_Go() (0002ms, 0740ms total)
T015C 000:814 JLINK_IsHalted()  returns FALSE (0001ms, 0741ms total)
T015C 000:852 JLINK_IsHalted() -- CPU_ReadMem(2 bytes @ 0x20000000)  returns TRUE (0003ms, 0743ms total)
T015C 000:855 JLINK_ReadReg(R15 (PC))  returns 0x20000000 (0000ms, 0740ms total)
T015C 000:855 JLINK_ClrBPEx(BPHandle = 0x00000002)  returns 0x00 (0000ms, 0740ms total)
T015C 000:855 JLINK_ReadReg(R0)  returns 0x00000000 (0000ms, 0740ms total)
T015C 000:906 JLINK_WriteReg(R0, 0x00000001)  returns 0x00 (0000ms, 0740ms total)
T015C 000:906 JLINK_WriteReg(R1, 0x02DC6C00)  returns 0x00 (0000ms, 0740ms total)
T015C 000:906 JLINK_WriteReg(R2, 0x00000001)  returns 0x00 (0000ms, 0740ms total)
T015C 000:906 JLINK_WriteReg(R3, 0x00000000)  returns 0x00 (0000ms, 0740ms total)
T015C 000:906 JLINK_WriteReg(R4, 0x00000000)  returns 0x00 (0000ms, 0740ms total)
T015C 000:906 JLINK_WriteReg(R5, 0x00000000)  returns 0x00 (0000ms, 0740ms total)
T015C 000:906 JLINK_WriteReg(R6, 0x00000000)  returns 0x00 (0000ms, 0740ms total)
T015C 000:906 JLINK_WriteReg(R7, 0x00000000)  returns 0x00 (0000ms, 0740ms total)
T015C 000:906 JLINK_WriteReg(R8, 0x00000000)  returns 0x00 (0000ms, 0740ms total)
T015C 000:906 JLINK_WriteReg(R9, 0x2000016C)  returns 0x00 (0000ms, 0740ms total)
T015C 000:906 JLINK_WriteReg(R10, 0x00000000)  returns 0x00 (0000ms, 0740ms total)
T015C 000:906 JLINK_WriteReg(R11, 0x00000000)  returns 0x00 (0000ms, 0740ms total)
T015C 000:906 JLINK_WriteReg(R12, 0x00000000)  returns 0x00 (0000ms, 0740ms total)
T015C 000:906 JLINK_WriteReg(R13 (SP), 0x20001000)  returns 0x00 (0000ms, 0740ms total)
T015C 000:906 JLINK_WriteReg(R14, 0x20000001)  returns 0x00 (0000ms, 0740ms total)
T015C 000:906 JLINK_WriteReg(R15 (PC), 0x20000066)  returns 0x00 (0000ms, 0740ms total)
T015C 000:906 JLINK_WriteReg(XPSR, 0x01000000)  returns 0x00 (0000ms, 0740ms total)
T015C 000:906 JLINK_WriteReg(MSP, 0x20001000)  returns 0x00 (0000ms, 0740ms total)
T015C 000:906 JLINK_WriteReg(PSP, 0x20001000)  returns 0x00 (0000ms, 0740ms total)
T015C 000:906 JLINK_WriteReg(CFBP, 0x00000000)  returns 0x00 (0000ms, 0740ms total)
T015C 000:906 JLINK_SetBPEx(Addr = 0x20000000, Type = 0xFFFFFFF2)  returns 0x00000003 (0000ms, 0740ms total)
T015C 000:906 JLINK_Go() (0002ms, 0742ms total)
T015C 000:908 JLINK_IsHalted() -- CPU_ReadMem(2 bytes @ 0x20000000)  returns TRUE (0004ms, 0746ms total)
T015C 000:912 JLINK_ReadReg(R15 (PC))  returns 0x20000000 (0000ms, 0742ms total)
T015C 000:912 JLINK_ClrBPEx(BPHandle = 0x00000003)  returns 0x00 (0000ms, 0742ms total)
T015C 000:912 JLINK_ReadReg(R0)  returns 0x00000000 (0000ms, 0742ms total)
T015C 000:915 JLINK_WriteMem(0x20000000, 0x0170 Bytes, ...) - Data: 00 BE 0A E0 0D 78 2D 06 68 40 08 24 40 00 00 D3 ... -- CPU_WriteMem(368 bytes @ 0x20000000)  returns 0x170 (0003ms, 0745ms total)
T015C 000:918 JLINK_WriteReg(R0, 0x08000000)  returns 0x00 (0000ms, 0745ms total)
T015C 000:918 JLINK_WriteReg(R1, 0x02DC6C00)  returns 0x00 (0000ms, 0745ms total)
T015C 000:918 JLINK_WriteReg(R2, 0x00000002)  returns 0x00 (0000ms, 0745ms total)
T015C 000:918 JLINK_WriteReg(R3, 0x00000000)  returns 0x00 (0000ms, 0745ms total)
T015C 000:918 JLINK_WriteReg(R4, 0x00000000)  returns 0x00 (0000ms, 0745ms total)
T015C 000:918 JLINK_WriteReg(R5, 0x00000000)  returns 0x00 (0000ms, 0745ms total)
T015C 000:918 JLINK_WriteReg(R6, 0x00000000)  returns 0x00 (0000ms, 0745ms total)
T015C 000:918 JLINK_WriteReg(R7, 0x00000000)  returns 0x00 (0000ms, 0745ms total)
T015C 000:918 JLINK_WriteReg(R8, 0x00000000)  returns 0x00 (0000ms, 0745ms total)
T015C 000:918 JLINK_WriteReg(R9, 0x2000016C)  returns 0x00 (0000ms, 0745ms total)
T015C 000:918 JLINK_WriteReg(R10, 0x00000000)  returns 0x00 (0000ms, 0745ms total)
T015C 000:918 JLINK_WriteReg(R11, 0x00000000)  returns 0x00 (0000ms, 0745ms total)
T015C 000:918 JLINK_WriteReg(R12, 0x00000000)  returns 0x00 (0000ms, 0745ms total)
T015C 000:918 JLINK_WriteReg(R13 (SP), 0x20001000)  returns 0x00 (0000ms, 0745ms total)
T015C 000:918 JLINK_WriteReg(R14, 0x20000001)  returns 0x00 (0000ms, 0745ms total)
T015C 000:918 JLINK_WriteReg(R15 (PC), 0x20000038)  returns 0x00 (0001ms, 0746ms total)
T015C 000:919 JLINK_WriteReg(XPSR, 0x01000000)  returns 0x00 (0000ms, 0746ms total)
T015C 000:919 JLINK_WriteReg(MSP, 0x20001000)  returns 0x00 (0000ms, 0746ms total)
T015C 000:919 JLINK_WriteReg(PSP, 0x20001000)  returns 0x00 (0000ms, 0746ms total)
T015C 000:919 JLINK_WriteReg(CFBP, 0x00000000)  returns 0x00 (0000ms, 0746ms total)
T015C 000:919 JLINK_SetBPEx(Addr = 0x20000000, Type = 0xFFFFFFF2) -- CPU_ReadMem(2 bytes @ 0x20000000)  returns 0x00000004 (0000ms, 0746ms total)
T015C 000:919 JLINK_Go() -- CPU_WriteMem(2 bytes @ 0x20000000) (0003ms, 0749ms total)
T015C 000:922 JLINK_IsHalted() -- CPU_ReadMem(2 bytes @ 0x20000000)  returns TRUE (0004ms, 0753ms total)
T015C 000:926 JLINK_ReadReg(R15 (PC))  returns 0x20000000 (0000ms, 0749ms total)
T015C 000:926 JLINK_ClrBPEx(BPHandle = 0x00000004)  returns 0x00 (0000ms, 0749ms total)
T015C 000:926 JLINK_ReadReg(R0)  returns 0x00000000 (0000ms, 0749ms total)
T015C 000:926 JLINK_WriteMem(0x20000170, 0x0290 Bytes, ...) - Data: 30 0E 00 20 C5 00 00 08 71 1B 00 08 23 1A 00 08 ... -- CPU_WriteMem(656 bytes @ 0x20000170)  returns 0x290 (0005ms, 0754ms total)
T015C 000:931 JLINK_WriteMem(0x20000400, 0x0170 Bytes, ...) - Data: 60 05 01 98 00 D5 40 42 29 68 0A 1D 2A 60 09 68 ... -- CPU_WriteMem(368 bytes @ 0x20000400)  returns 0x170 (0003ms, 0757ms total)
T015C 000:934 JLINK_WriteReg(R0, 0x08000000)  returns 0x00 (0000ms, 0757ms total)
T015C 000:934 JLINK_WriteReg(R1, 0x00000400)  returns 0x00 (0000ms, 0757ms total)
T015C 000:934 JLINK_WriteReg(R2, 0x20000170)  returns 0x00 (0000ms, 0757ms total)
T015C 000:934 JLINK_WriteReg(R3, 0x00000000)  returns 0x00 (0000ms, 0757ms total)
T015C 000:934 JLINK_WriteReg(R4, 0x00000000)  returns 0x00 (0000ms, 0757ms total)
T015C 000:934 JLINK_WriteReg(R5, 0x00000000)  returns 0x00 (0000ms, 0757ms total)
T015C 000:934 JLINK_WriteReg(R6, 0x00000000)  returns 0x00 (0000ms, 0757ms total)
T015C 000:934 JLINK_WriteReg(R7, 0x00000000)  returns 0x00 (0000ms, 0757ms total)
T015C 000:934 JLINK_WriteReg(R8, 0x00000000)  returns 0x00 (0000ms, 0757ms total)
T015C 000:934 JLINK_WriteReg(R9, 0x2000016C)  returns 0x00 (0000ms, 0757ms total)
T015C 000:934 JLINK_WriteReg(R10, 0x00000000)  returns 0x00 (0000ms, 0757ms total)
T015C 000:934 JLINK_WriteReg(R11, 0x00000000)  returns 0x00 (0000ms, 0757ms total)
T015C 000:934 JLINK_WriteReg(R12, 0x00000000)  returns 0x00 (0000ms, 0757ms total)
T015C 000:934 JLINK_WriteReg(R13 (SP), 0x20001000)  returns 0x00 (0000ms, 0757ms total)
T015C 000:934 JLINK_WriteReg(R14, 0x20000001)  returns 0x00 (0000ms, 0757ms total)
T015C 000:934 JLINK_WriteReg(R15 (PC), 0x200000FA)  returns 0x00 (0000ms, 0757ms total)
T015C 000:934 JLINK_WriteReg(XPSR, 0x01000000)  returns 0x00 (0000ms, 0757ms total)
T015C 000:934 JLINK_WriteReg(MSP, 0x20001000)  returns 0x00 (0000ms, 0757ms total)
T015C 000:934 JLINK_WriteReg(PSP, 0x20001000)  returns 0x00 (0000ms, 0757ms total)
T015C 000:934 JLINK_WriteReg(CFBP, 0x00000000)  returns 0x00 (0000ms, 0757ms total)
T015C 000:934 JLINK_SetBPEx(Addr = 0x20000000, Type = 0xFFFFFFF2)  returns 0x00000005 (0000ms, 0757ms total)
T015C 000:934 JLINK_Go() (0003ms, 0760ms total)
T015C 000:937 JLINK_IsHalted()  returns FALSE (0001ms, 0761ms total)
T015C 000:960 JLINK_IsHalted()  returns FALSE (0000ms, 0760ms total)
T015C 000:961 JLINK_IsHalted()  returns FALSE (0000ms, 0760ms total)
T015C 000:962 JLINK_IsHalted()  returns FALSE (0000ms, 0760ms total)
T015C 000:963 JLINK_IsHalted()  returns FALSE (0000ms, 0760ms total)
T015C 000:964 JLINK_IsHalted()  returns FALSE (0000ms, 0760ms total)
T015C 000:965 JLINK_IsHalted()  returns FALSE (0000ms, 0760ms total)
T015C 000:967 JLINK_IsHalted() -- CPU_ReadMem(2 bytes @ 0x20000000)  returns TRUE (0003ms, 0763ms total)
T015C 000:970 JLINK_ReadReg(R15 (PC))  returns 0x20000000 (0000ms, 0760ms total)
T015C 000:970 JLINK_ClrBPEx(BPHandle = 0x00000005)  returns 0x00 (0000ms, 0760ms total)
T015C 000:970 JLINK_ReadReg(R0)  returns 0x00000000 (0000ms, 0760ms total)
T015C 000:971 JLINK_WriteMem(0x20000170, 0x0290 Bytes, ...) - Data: A8 42 01 D1 76 1C D2 E7 E1 69 0D 98 88 47 7F 1C ... -- CPU_WriteMem(656 bytes @ 0x20000170)  returns 0x290 (0004ms, 0764ms total)
T015C 000:975 JLINK_WriteMem(0x20000400, 0x0170 Bytes, ...) - Data: C0 43 0D 99 C0 46 C0 46 00 28 0A DA 40 1C 06 D1 ... -- CPU_WriteMem(368 bytes @ 0x20000400)  returns 0x170 (0003ms, 0767ms total)
T015C 000:978 JLINK_WriteReg(R0, 0x08000400)  returns 0x00 (0000ms, 0767ms total)
T015C 000:978 JLINK_WriteReg(R1, 0x00000400)  returns 0x00 (0000ms, 0767ms total)
T015C 000:978 JLINK_WriteReg(R2, 0x20000170)  returns 0x00 (0000ms, 0767ms total)
T015C 000:978 JLINK_WriteReg(R3, 0x00000000)  returns 0x00 (0000ms, 0767ms total)
T015C 000:978 JLINK_WriteReg(R4, 0x00000000)  returns 0x00 (0000ms, 0767ms total)
T015C 000:978 JLINK_WriteReg(R5, 0x00000000)  returns 0x00 (0000ms, 0767ms total)
T015C 000:978 JLINK_WriteReg(R6, 0x00000000)  returns 0x00 (0000ms, 0767ms total)
T015C 000:978 JLINK_WriteReg(R7, 0x00000000)  returns 0x00 (0000ms, 0767ms total)
T015C 000:978 JLINK_WriteReg(R8, 0x00000000)  returns 0x00 (0000ms, 0767ms total)
T015C 000:978 JLINK_WriteReg(R9, 0x2000016C)  returns 0x00 (0000ms, 0767ms total)
T015C 000:978 JLINK_WriteReg(R10, 0x00000000)  returns 0x00 (0000ms, 0767ms total)
T015C 000:978 JLINK_WriteReg(R11, 0x00000000)  returns 0x00 (0000ms, 0767ms total)
T015C 000:978 JLINK_WriteReg(R12, 0x00000000)  returns 0x00 (0000ms, 0767ms total)
T015C 000:978 JLINK_WriteReg(R13 (SP), 0x20001000)  returns 0x00 (0000ms, 0767ms total)
T015C 000:978 JLINK_WriteReg(R14, 0x20000001)  returns 0x00 (0000ms, 0767ms total)
T015C 000:978 JLINK_WriteReg(R15 (PC), 0x200000FA)  returns 0x00 (0000ms, 0767ms total)
T015C 000:978 JLINK_WriteReg(XPSR, 0x01000000)  returns 0x00 (0000ms, 0767ms total)
T015C 000:978 JLINK_WriteReg(MSP, 0x20001000)  returns 0x00 (0000ms, 0767ms total)
T015C 000:978 JLINK_WriteReg(PSP, 0x20001000)  returns 0x00 (0000ms, 0767ms total)
T015C 000:978 JLINK_WriteReg(CFBP, 0x00000000)  returns 0x00 (0000ms, 0767ms total)
T015C 000:978 JLINK_SetBPEx(Addr = 0x20000000, Type = 0xFFFFFFF2)  returns 0x00000006 (0000ms, 0767ms total)
T015C 000:978 JLINK_Go() (0003ms, 0770ms total)
T015C 000:981 JLINK_IsHalted()  returns FALSE (0001ms, 0771ms total)
T015C 000:983 JLINK_IsHalted()  returns FALSE (0000ms, 0770ms total)
T015C 000:984 JLINK_IsHalted()  returns FALSE (0000ms, 0770ms total)
T015C 000:985 JLINK_IsHalted()  returns FALSE (0000ms, 0770ms total)
T015C 000:986 JLINK_IsHalted()  returns FALSE (0000ms, 0770ms total)
T015C 000:987 JLINK_IsHalted()  returns FALSE (0000ms, 0770ms total)
T015C 000:988 JLINK_IsHalted()  returns FALSE (0000ms, 0770ms total)
T015C 000:989 JLINK_IsHalted()  returns FALSE (0000ms, 0770ms total)
T015C 000:990 JLINK_IsHalted()  returns FALSE (0000ms, 0770ms total)
T015C 000:991 JLINK_IsHalted()  returns FALSE (0000ms, 0770ms total)
T015C 000:992 JLINK_IsHalted()  returns FALSE (0000ms, 0770ms total)
T015C 000:993 JLINK_IsHalted()  returns FALSE (0000ms, 0770ms total)
T015C 000:994 JLINK_IsHalted()  returns FALSE (0000ms, 0770ms total)
T015C 000:995 JLINK_IsHalted()  returns FALSE (0000ms, 0770ms total)
T015C 000:996 JLINK_IsHalted()  returns FALSE (0000ms, 0770ms total)
T015C 001:015 JLINK_IsHalted() -- CPU_ReadMem(2 bytes @ 0x20000000)  returns TRUE (0004ms, 0774ms total)
T015C 001:019 JLINK_ReadReg(R15 (PC))  returns 0x20000000 (0000ms, 0770ms total)
T015C 001:019 JLINK_ClrBPEx(BPHandle = 0x00000006)  returns 0x00 (0000ms, 0770ms total)
T015C 001:019 JLINK_ReadReg(R0)  returns 0x00000000 (0000ms, 0770ms total)
T015C 001:020 JLINK_WriteMem(0x20000170, 0x0290 Bytes, ...) - Data: 01 22 D2 03 01 E0 01 22 D2 04 25 46 11 40 20 35 ... -- CPU_WriteMem(656 bytes @ 0x20000170)  returns 0x290 (0004ms, 0774ms total)
T015C 001:024 JLINK_WriteMem(0x20000400, 0x0170 Bytes, ...) - Data: 05 68 5E 00 03 24 B4 40 0F 79 A5 43 BF 07 BF 0F ... -- CPU_WriteMem(368 bytes @ 0x20000400)  returns 0x170 (0003ms, 0777ms total)
T015C 001:027 JLINK_WriteReg(R0, 0x08000800)  returns 0x00 (0000ms, 0777ms total)
T015C 001:027 JLINK_WriteReg(R1, 0x00000400)  returns 0x00 (0000ms, 0777ms total)
T015C 001:027 JLINK_WriteReg(R2, 0x20000170)  returns 0x00 (0000ms, 0777ms total)
T015C 001:027 JLINK_WriteReg(R3, 0x00000000)  returns 0x00 (0000ms, 0777ms total)
T015C 001:027 JLINK_WriteReg(R4, 0x00000000)  returns 0x00 (0000ms, 0777ms total)
T015C 001:027 JLINK_WriteReg(R5, 0x00000000)  returns 0x00 (0000ms, 0777ms total)
T015C 001:027 JLINK_WriteReg(R6, 0x00000000)  returns 0x00 (0000ms, 0777ms total)
T015C 001:027 JLINK_WriteReg(R7, 0x00000000)  returns 0x00 (0000ms, 0777ms total)
T015C 001:027 JLINK_WriteReg(R8, 0x00000000)  returns 0x00 (0000ms, 0777ms total)
T015C 001:027 JLINK_WriteReg(R9, 0x2000016C)  returns 0x00 (0000ms, 0777ms total)
T015C 001:027 JLINK_WriteReg(R10, 0x00000000)  returns 0x00 (0000ms, 0777ms total)
T015C 001:027 JLINK_WriteReg(R11, 0x00000000)  returns 0x00 (0000ms, 0777ms total)
T015C 001:027 JLINK_WriteReg(R12, 0x00000000)  returns 0x00 (0000ms, 0777ms total)
T015C 001:027 JLINK_WriteReg(R13 (SP), 0x20001000)  returns 0x00 (0000ms, 0777ms total)
T015C 001:027 JLINK_WriteReg(R14, 0x20000001)  returns 0x00 (0000ms, 0777ms total)
T015C 001:027 JLINK_WriteReg(R15 (PC), 0x200000FA)  returns 0x00 (0000ms, 0777ms total)
T015C 001:027 JLINK_WriteReg(XPSR, 0x01000000)  returns 0x00 (0000ms, 0777ms total)
T015C 001:027 JLINK_WriteReg(MSP, 0x20001000)  returns 0x00 (0000ms, 0777ms total)
T015C 001:027 JLINK_WriteReg(PSP, 0x20001000)  returns 0x00 (0000ms, 0777ms total)
T015C 001:027 JLINK_WriteReg(CFBP, 0x00000000)  returns 0x00 (0000ms, 0777ms total)
T015C 001:027 JLINK_SetBPEx(Addr = 0x20000000, Type = 0xFFFFFFF2)  returns 0x00000007 (0000ms, 0777ms total)
T015C 001:027 JLINK_Go() (0003ms, 0780ms total)
T015C 001:030 JLINK_IsHalted()  returns FALSE (0001ms, 0781ms total)
T015C 001:032 JLINK_IsHalted()  returns FALSE (0000ms, 0780ms total)
T015C 001:033 JLINK_IsHalted()  returns FALSE (0000ms, 0780ms total)
T015C 001:034 JLINK_IsHalted()  returns FALSE (0000ms, 0780ms total)
T015C 001:035 JLINK_IsHalted()  returns FALSE (0000ms, 0780ms total)
T015C 001:036 JLINK_IsHalted()  returns FALSE (0000ms, 0780ms total)
T015C 001:037 JLINK_IsHalted()  returns FALSE (0000ms, 0780ms total)
T015C 001:038 JLINK_IsHalted()  returns FALSE (0000ms, 0780ms total)
T015C 001:039 JLINK_IsHalted()  returns FALSE (0000ms, 0780ms total)
T015C 001:040 JLINK_IsHalted()  returns FALSE (0000ms, 0780ms total)
T015C 001:041 JLINK_IsHalted()  returns FALSE (0000ms, 0780ms total)
T015C 001:042 JLINK_IsHalted()  returns FALSE (0000ms, 0780ms total)
T015C 001:043 JLINK_IsHalted()  returns FALSE (0000ms, 0780ms total)
T015C 001:044 JLINK_IsHalted()  returns FALSE (0000ms, 0780ms total)
T015C 001:047 JLINK_IsHalted()  returns FALSE (0000ms, 0780ms total)
T015C 001:048 JLINK_IsHalted()  returns FALSE (0000ms, 0780ms total)
T015C 001:049 JLINK_IsHalted()  returns FALSE (0000ms, 0780ms total)
T015C 001:050 JLINK_IsHalted()  returns FALSE (0000ms, 0780ms total)
T015C 001:051 JLINK_IsHalted()  returns FALSE (0000ms, 0780ms total)
T015C 001:052 JLINK_IsHalted()  returns FALSE (0000ms, 0780ms total)
T015C 001:053 JLINK_IsHalted()  returns FALSE (0000ms, 0780ms total)
T015C 001:054 JLINK_IsHalted()  returns FALSE (0000ms, 0780ms total)
T015C 001:055 JLINK_IsHalted()  returns FALSE (0000ms, 0780ms total)
T015C 001:056 JLINK_IsHalted()  returns FALSE (0000ms, 0780ms total)
T015C 001:057 JLINK_IsHalted()  returns FALSE (0000ms, 0780ms total)
T015C 001:058 JLINK_IsHalted()  returns FALSE (0000ms, 0780ms total)
T015C 001:059 JLINK_IsHalted()  returns FALSE (0000ms, 0780ms total)
T015C 001:060 JLINK_IsHalted() -- CPU_ReadMem(2 bytes @ 0x20000000)  returns TRUE (0003ms, 0783ms total)
T015C 001:063 JLINK_ReadReg(R15 (PC))  returns 0x20000000 (0000ms, 0780ms total)
T015C 001:063 JLINK_ClrBPEx(BPHandle = 0x00000007)  returns 0x00 (0000ms, 0780ms total)
T015C 001:063 JLINK_ReadReg(R0)  returns 0x00000000 (0000ms, 0780ms total)
T015C 001:064 JLINK_WriteMem(0x20000170, 0x0290 Bytes, ...) - Data: 00 22 21 46 50 1E 00 F0 29 F8 00 20 10 BD 00 00 ... -- CPU_WriteMem(656 bytes @ 0x20000170)  returns 0x290 (0004ms, 0784ms total)
T015C 001:068 JLINK_WriteMem(0x20000400, 0x0170 Bytes, ...) - Data: 49 0F 51 5C C8 40 70 47 64 08 00 20 00 10 02 40 ... -- CPU_WriteMem(368 bytes @ 0x20000400)  returns 0x170 (0003ms, 0787ms total)
T015C 001:071 JLINK_WriteReg(R0, 0x08000C00)  returns 0x00 (0000ms, 0787ms total)
T015C 001:071 JLINK_WriteReg(R1, 0x00000400)  returns 0x00 (0000ms, 0787ms total)
T015C 001:071 JLINK_WriteReg(R2, 0x20000170)  returns 0x00 (0000ms, 0787ms total)
T015C 001:071 JLINK_WriteReg(R3, 0x00000000)  returns 0x00 (0000ms, 0787ms total)
T015C 001:071 JLINK_WriteReg(R4, 0x00000000)  returns 0x00 (0000ms, 0787ms total)
T015C 001:071 JLINK_WriteReg(R5, 0x00000000)  returns 0x00 (0000ms, 0787ms total)
T015C 001:071 JLINK_WriteReg(R6, 0x00000000)  returns 0x00 (0000ms, 0787ms total)
T015C 001:071 JLINK_WriteReg(R7, 0x00000000)  returns 0x00 (0000ms, 0787ms total)
T015C 001:071 JLINK_WriteReg(R8, 0x00000000)  returns 0x00 (0000ms, 0787ms total)
T015C 001:071 JLINK_WriteReg(R9, 0x2000016C)  returns 0x00 (0000ms, 0787ms total)
T015C 001:071 JLINK_WriteReg(R10, 0x00000000)  returns 0x00 (0000ms, 0787ms total)
T015C 001:071 JLINK_WriteReg(R11, 0x00000000)  returns 0x00 (0000ms, 0787ms total)
T015C 001:071 JLINK_WriteReg(R12, 0x00000000)  returns 0x00 (0000ms, 0787ms total)
T015C 001:071 JLINK_WriteReg(R13 (SP), 0x20001000)  returns 0x00 (0000ms, 0787ms total)
T015C 001:071 JLINK_WriteReg(R14, 0x20000001)  returns 0x00 (0000ms, 0787ms total)
T015C 001:071 JLINK_WriteReg(R15 (PC), 0x200000FA)  returns 0x00 (0000ms, 0787ms total)
T015C 001:071 JLINK_WriteReg(XPSR, 0x01000000)  returns 0x00 (0000ms, 0787ms total)
T015C 001:071 JLINK_WriteReg(MSP, 0x20001000)  returns 0x00 (0000ms, 0787ms total)
T015C 001:071 JLINK_WriteReg(PSP, 0x20001000)  returns 0x00 (0000ms, 0787ms total)
T015C 001:071 JLINK_WriteReg(CFBP, 0x00000000)  returns 0x00 (0000ms, 0787ms total)
T015C 001:071 JLINK_SetBPEx(Addr = 0x20000000, Type = 0xFFFFFFF2)  returns 0x00000008 (0000ms, 0787ms total)
T015C 001:071 JLINK_Go() (0003ms, 0790ms total)
T015C 001:074 JLINK_IsHalted()  returns FALSE (0001ms, 0791ms total)
T015C 001:077 JLINK_IsHalted()  returns FALSE (0000ms, 0790ms total)
T015C 001:078 JLINK_IsHalted()  returns FALSE (0000ms, 0790ms total)
T015C 001:079 JLINK_IsHalted()  returns FALSE (0000ms, 0790ms total)
T015C 001:080 JLINK_IsHalted()  returns FALSE (0000ms, 0790ms total)
T015C 001:081 JLINK_IsHalted()  returns FALSE (0000ms, 0790ms total)
T015C 001:082 JLINK_IsHalted()  returns FALSE (0000ms, 0790ms total)
T015C 001:083 JLINK_IsHalted()  returns FALSE (0000ms, 0790ms total)
T015C 001:084 JLINK_IsHalted()  returns FALSE (0000ms, 0790ms total)
T015C 001:085 JLINK_IsHalted()  returns FALSE (0000ms, 0790ms total)
T015C 001:086 JLINK_IsHalted()  returns FALSE (0000ms, 0790ms total)
T015C 001:087 JLINK_IsHalted()  returns FALSE (0000ms, 0790ms total)
T015C 001:088 JLINK_IsHalted()  returns FALSE (0000ms, 0790ms total)
T015C 001:089 JLINK_IsHalted()  returns FALSE (0000ms, 0790ms total)
T015C 001:090 JLINK_IsHalted()  returns FALSE (0000ms, 0790ms total)
T015C 001:091 JLINK_IsHalted()  returns FALSE (0000ms, 0790ms total)
T015C 001:092 JLINK_IsHalted()  returns FALSE (0000ms, 0790ms total)
T015C 001:093 JLINK_IsHalted()  returns FALSE (0000ms, 0790ms total)
T015C 001:094 JLINK_IsHalted()  returns FALSE (0000ms, 0790ms total)
T015C 001:095 JLINK_IsHalted()  returns FALSE (0000ms, 0790ms total)
T015C 001:096 JLINK_IsHalted()  returns FALSE (0000ms, 0790ms total)
T015C 001:097 JLINK_IsHalted()  returns FALSE (0000ms, 0790ms total)
T015C 001:098 JLINK_IsHalted()  returns FALSE (0000ms, 0790ms total)
T015C 001:099 JLINK_IsHalted()  returns FALSE (0000ms, 0790ms total)
T015C 001:100 JLINK_IsHalted()  returns FALSE (0000ms, 0790ms total)
T015C 001:101 JLINK_IsHalted()  returns FALSE (0000ms, 0790ms total)
T015C 001:102 JLINK_IsHalted()  returns FALSE (0000ms, 0790ms total)
T015C 001:103 JLINK_IsHalted()  returns FALSE (0000ms, 0790ms total)
T015C 001:104 JLINK_IsHalted() -- CPU_ReadMem(2 bytes @ 0x20000000)  returns TRUE (0003ms, 0793ms total)
T015C 001:107 JLINK_ReadReg(R15 (PC))  returns 0x20000000 (0000ms, 0790ms total)
T015C 001:107 JLINK_ClrBPEx(BPHandle = 0x00000008)  returns 0x00 (0000ms, 0790ms total)
T015C 001:107 JLINK_ReadReg(R0)  returns 0x00000000 (0000ms, 0790ms total)
T015C 001:108 JLINK_WriteMem(0x20000170, 0x0290 Bytes, ...) - Data: C0 1B 02 28 C7 D8 28 68 80 07 F7 D5 28 68 F8 21 ... -- CPU_WriteMem(656 bytes @ 0x20000170)  returns 0x290 (0004ms, 0794ms total)
T015C 001:112 JLINK_WriteMem(0x20000400, 0x0170 Bytes, ...) - Data: 02 23 6B 77 20 68 01 68 40 22 91 43 01 60 07 22 ... -- CPU_WriteMem(368 bytes @ 0x20000400)  returns 0x170 (0003ms, 0797ms total)
T015C 001:115 JLINK_WriteReg(R0, 0x08001000)  returns 0x00 (0000ms, 0797ms total)
T015C 001:115 JLINK_WriteReg(R1, 0x00000400)  returns 0x00 (0000ms, 0797ms total)
T015C 001:115 JLINK_WriteReg(R2, 0x20000170)  returns 0x00 (0000ms, 0797ms total)
T015C 001:115 JLINK_WriteReg(R3, 0x00000000)  returns 0x00 (0000ms, 0797ms total)
T015C 001:115 JLINK_WriteReg(R4, 0x00000000)  returns 0x00 (0000ms, 0797ms total)
T015C 001:115 JLINK_WriteReg(R5, 0x00000000)  returns 0x00 (0000ms, 0797ms total)
T015C 001:115 JLINK_WriteReg(R6, 0x00000000)  returns 0x00 (0000ms, 0797ms total)
T015C 001:115 JLINK_WriteReg(R7, 0x00000000)  returns 0x00 (0000ms, 0797ms total)
T015C 001:115 JLINK_WriteReg(R8, 0x00000000)  returns 0x00 (0000ms, 0797ms total)
T015C 001:115 JLINK_WriteReg(R9, 0x2000016C)  returns 0x00 (0000ms, 0797ms total)
T015C 001:115 JLINK_WriteReg(R10, 0x00000000)  returns 0x00 (0000ms, 0797ms total)
T015C 001:115 JLINK_WriteReg(R11, 0x00000000)  returns 0x00 (0000ms, 0797ms total)
T015C 001:115 JLINK_WriteReg(R12, 0x00000000)  returns 0x00 (0000ms, 0797ms total)
T015C 001:115 JLINK_WriteReg(R13 (SP), 0x20001000)  returns 0x00 (0000ms, 0797ms total)
T015C 001:115 JLINK_WriteReg(R14, 0x20000001)  returns 0x00 (0000ms, 0797ms total)
T015C 001:115 JLINK_WriteReg(R15 (PC), 0x200000FA)  returns 0x00 (0000ms, 0797ms total)
T015C 001:115 JLINK_WriteReg(XPSR, 0x01000000)  returns 0x00 (0000ms, 0797ms total)
T015C 001:115 JLINK_WriteReg(MSP, 0x20001000)  returns 0x00 (0000ms, 0797ms total)
T015C 001:115 JLINK_WriteReg(PSP, 0x20001000)  returns 0x00 (0000ms, 0797ms total)
T015C 001:115 JLINK_WriteReg(CFBP, 0x00000000)  returns 0x00 (0000ms, 0797ms total)
T015C 001:115 JLINK_SetBPEx(Addr = 0x20000000, Type = 0xFFFFFFF2)  returns 0x00000009 (0000ms, 0797ms total)
T015C 001:115 JLINK_Go() (0003ms, 0800ms total)
T015C 001:118 JLINK_IsHalted()  returns FALSE (0001ms, 0801ms total)
T015C 001:136 JLINK_IsHalted()  returns FALSE (0000ms, 0800ms total)
T015C 001:137 JLINK_IsHalted()  returns FALSE (0000ms, 0800ms total)
T015C 001:138 JLINK_IsHalted()  returns FALSE (0000ms, 0800ms total)
T015C 001:139 JLINK_IsHalted()  returns FALSE (0000ms, 0800ms total)
T015C 001:140 JLINK_IsHalted()  returns FALSE (0000ms, 0800ms total)
T015C 001:141 JLINK_IsHalted()  returns FALSE (0000ms, 0800ms total)
T015C 001:142 JLINK_IsHalted()  returns FALSE (0000ms, 0800ms total)
T015C 001:143 JLINK_IsHalted()  returns FALSE (0000ms, 0800ms total)
T015C 001:144 JLINK_IsHalted()  returns FALSE (0000ms, 0800ms total)
T015C 001:145 JLINK_IsHalted()  returns FALSE (0000ms, 0800ms total)
T015C 001:146 JLINK_IsHalted()  returns FALSE (0000ms, 0800ms total)
T015C 001:147 JLINK_IsHalted()  returns FALSE (0000ms, 0800ms total)
T015C 001:148 JLINK_IsHalted() -- CPU_ReadMem(2 bytes @ 0x20000000)  returns TRUE (0003ms, 0803ms total)
T015C 001:151 JLINK_ReadReg(R15 (PC))  returns 0x20000000 (0000ms, 0800ms total)
T015C 001:151 JLINK_ClrBPEx(BPHandle = 0x00000009)  returns 0x00 (0000ms, 0800ms total)
T015C 001:151 JLINK_ReadReg(R0)  returns 0x00000000 (0000ms, 0800ms total)
T015C 001:152 JLINK_WriteMem(0x20000170, 0x0290 Bytes, ...) - Data: 39 43 01 60 20 68 01 68 49 06 03 D4 01 68 40 22 ... -- CPU_WriteMem(656 bytes @ 0x20000170)  returns 0x290 (0004ms, 0804ms total)
T015C 001:156 JLINK_WriteMem(0x20000400, 0x0170 Bytes, ...) - Data: 30 76 F8 BD 70 B5 04 00 05 D0 25 46 20 35 68 7E ... -- CPU_WriteMem(368 bytes @ 0x20000400)  returns 0x170 (0003ms, 0807ms total)
T015C 001:159 JLINK_WriteReg(R0, 0x08001400)  returns 0x00 (0000ms, 0807ms total)
T015C 001:159 JLINK_WriteReg(R1, 0x00000400)  returns 0x00 (0000ms, 0807ms total)
T015C 001:159 JLINK_WriteReg(R2, 0x20000170)  returns 0x00 (0000ms, 0807ms total)
T015C 001:159 JLINK_WriteReg(R3, 0x00000000)  returns 0x00 (0000ms, 0807ms total)
T015C 001:159 JLINK_WriteReg(R4, 0x00000000)  returns 0x00 (0000ms, 0807ms total)
T015C 001:159 JLINK_WriteReg(R5, 0x00000000)  returns 0x00 (0000ms, 0807ms total)
T015C 001:159 JLINK_WriteReg(R6, 0x00000000)  returns 0x00 (0000ms, 0807ms total)
T015C 001:159 JLINK_WriteReg(R7, 0x00000000)  returns 0x00 (0000ms, 0807ms total)
T015C 001:159 JLINK_WriteReg(R8, 0x00000000)  returns 0x00 (0000ms, 0807ms total)
T015C 001:159 JLINK_WriteReg(R9, 0x2000016C)  returns 0x00 (0000ms, 0807ms total)
T015C 001:159 JLINK_WriteReg(R10, 0x00000000)  returns 0x00 (0000ms, 0807ms total)
T015C 001:159 JLINK_WriteReg(R11, 0x00000000)  returns 0x00 (0000ms, 0807ms total)
T015C 001:159 JLINK_WriteReg(R12, 0x00000000)  returns 0x00 (0000ms, 0807ms total)
T015C 001:159 JLINK_WriteReg(R13 (SP), 0x20001000)  returns 0x00 (0000ms, 0807ms total)
T015C 001:159 JLINK_WriteReg(R14, 0x20000001)  returns 0x00 (0000ms, 0807ms total)
T015C 001:159 JLINK_WriteReg(R15 (PC), 0x200000FA)  returns 0x00 (0000ms, 0807ms total)
T015C 001:159 JLINK_WriteReg(XPSR, 0x01000000)  returns 0x00 (0000ms, 0807ms total)
T015C 001:159 JLINK_WriteReg(MSP, 0x20001000)  returns 0x00 (0000ms, 0807ms total)
T015C 001:159 JLINK_WriteReg(PSP, 0x20001000)  returns 0x00 (0000ms, 0807ms total)
T015C 001:159 JLINK_WriteReg(CFBP, 0x00000000)  returns 0x00 (0000ms, 0807ms total)
T015C 001:159 JLINK_SetBPEx(Addr = 0x20000000, Type = 0xFFFFFFF2)  returns 0x0000000A (0000ms, 0807ms total)
T015C 001:159 JLINK_Go() (0003ms, 0810ms total)
T015C 001:162 JLINK_IsHalted()  returns FALSE (0001ms, 0811ms total)
T015C 001:165 JLINK_IsHalted()  returns FALSE (0000ms, 0810ms total)
T015C 001:166 JLINK_IsHalted()  returns FALSE (0000ms, 0810ms total)
T015C 001:167 JLINK_IsHalted()  returns FALSE (0000ms, 0810ms total)
T015C 001:168 JLINK_IsHalted()  returns FALSE (0000ms, 0810ms total)
T015C 001:169 JLINK_IsHalted()  returns FALSE (0000ms, 0810ms total)
T015C 001:170 JLINK_IsHalted()  returns FALSE (0000ms, 0810ms total)
T015C 001:171 JLINK_IsHalted()  returns FALSE (0000ms, 0810ms total)
T015C 001:173 JLINK_IsHalted()  returns FALSE (0000ms, 0810ms total)
T015C 001:174 JLINK_IsHalted()  returns FALSE (0000ms, 0810ms total)
T015C 001:175 JLINK_IsHalted()  returns FALSE (0000ms, 0810ms total)
T015C 001:176 JLINK_IsHalted()  returns FALSE (0000ms, 0810ms total)
T015C 001:177 JLINK_IsHalted()  returns FALSE (0000ms, 0810ms total)
T015C 001:178 JLINK_IsHalted()  returns FALSE (0000ms, 0810ms total)
T015C 001:179 JLINK_IsHalted()  returns FALSE (0000ms, 0810ms total)
T015C 001:180 JLINK_IsHalted()  returns FALSE (0000ms, 0810ms total)
T015C 001:181 JLINK_IsHalted()  returns FALSE (0000ms, 0810ms total)
T015C 001:182 JLINK_IsHalted()  returns FALSE (0000ms, 0810ms total)
T015C 001:183 JLINK_IsHalted()  returns FALSE (0000ms, 0810ms total)
T015C 001:184 JLINK_IsHalted()  returns FALSE (0000ms, 0810ms total)
T015C 001:185 JLINK_IsHalted()  returns FALSE (0000ms, 0810ms total)
T015C 001:187 JLINK_IsHalted()  returns FALSE (0000ms, 0810ms total)
T015C 001:188 JLINK_IsHalted()  returns FALSE (0000ms, 0810ms total)
T015C 001:189 JLINK_IsHalted()  returns FALSE (0000ms, 0810ms total)
T015C 001:190 JLINK_IsHalted()  returns FALSE (0000ms, 0810ms total)
T015C 001:191 JLINK_IsHalted()  returns FALSE (0000ms, 0810ms total)
T015C 001:192 JLINK_IsHalted() -- CPU_ReadMem(2 bytes @ 0x20000000)  returns TRUE (0003ms, 0813ms total)
T015C 001:195 JLINK_ReadReg(R15 (PC))  returns 0x20000000 (0000ms, 0810ms total)
T015C 001:195 JLINK_ClrBPEx(BPHandle = 0x0000000A)  returns 0x00 (0000ms, 0810ms total)
T015C 001:195 JLINK_ReadReg(R0)  returns 0x00000000 (0000ms, 0810ms total)
T015C 001:196 JLINK_WriteMem(0x20000170, 0x0290 Bytes, ...) - Data: 24 20 68 72 20 68 01 68 49 08 49 00 01 60 20 46 ... -- CPU_WriteMem(656 bytes @ 0x20000170)  returns 0x290 (0004ms, 0814ms total)
T015C 001:200 JLINK_WriteMem(0x20000400, 0x0170 Bytes, ...) - Data: 41 60 07 22 12 02 C2 60 00 21 81 60 02 22 02 61 ... -- CPU_WriteMem(368 bytes @ 0x20000400)  returns 0x170 (0003ms, 0817ms total)
T015C 001:203 JLINK_WriteReg(R0, 0x08001800)  returns 0x00 (0000ms, 0817ms total)
T015C 001:203 JLINK_WriteReg(R1, 0x00000400)  returns 0x00 (0000ms, 0817ms total)
T015C 001:203 JLINK_WriteReg(R2, 0x20000170)  returns 0x00 (0000ms, 0817ms total)
T015C 001:203 JLINK_WriteReg(R3, 0x00000000)  returns 0x00 (0000ms, 0817ms total)
T015C 001:203 JLINK_WriteReg(R4, 0x00000000)  returns 0x00 (0000ms, 0817ms total)
T015C 001:203 JLINK_WriteReg(R5, 0x00000000)  returns 0x00 (0000ms, 0817ms total)
T015C 001:203 JLINK_WriteReg(R6, 0x00000000)  returns 0x00 (0000ms, 0817ms total)
T015C 001:203 JLINK_WriteReg(R7, 0x00000000)  returns 0x00 (0000ms, 0817ms total)
T015C 001:203 JLINK_WriteReg(R8, 0x00000000)  returns 0x00 (0000ms, 0817ms total)
T015C 001:203 JLINK_WriteReg(R9, 0x2000016C)  returns 0x00 (0000ms, 0817ms total)
T015C 001:203 JLINK_WriteReg(R10, 0x00000000)  returns 0x00 (0000ms, 0817ms total)
T015C 001:203 JLINK_WriteReg(R11, 0x00000000)  returns 0x00 (0000ms, 0817ms total)
T015C 001:203 JLINK_WriteReg(R12, 0x00000000)  returns 0x00 (0000ms, 0817ms total)
T015C 001:203 JLINK_WriteReg(R13 (SP), 0x20001000)  returns 0x00 (0000ms, 0817ms total)
T015C 001:203 JLINK_WriteReg(R14, 0x20000001)  returns 0x00 (0000ms, 0817ms total)
T015C 001:203 JLINK_WriteReg(R15 (PC), 0x200000FA)  returns 0x00 (0000ms, 0817ms total)
T015C 001:203 JLINK_WriteReg(XPSR, 0x01000000)  returns 0x00 (0000ms, 0817ms total)
T015C 001:203 JLINK_WriteReg(MSP, 0x20001000)  returns 0x00 (0000ms, 0817ms total)
T015C 001:203 JLINK_WriteReg(PSP, 0x20001000)  returns 0x00 (0000ms, 0817ms total)
T015C 001:203 JLINK_WriteReg(CFBP, 0x00000000)  returns 0x00 (0000ms, 0817ms total)
T015C 001:203 JLINK_SetBPEx(Addr = 0x20000000, Type = 0xFFFFFFF2)  returns 0x0000000B (0000ms, 0817ms total)
T015C 001:203 JLINK_Go() (0003ms, 0820ms total)
T015C 001:206 JLINK_IsHalted()  returns FALSE (0001ms, 0821ms total)
T015C 001:209 JLINK_IsHalted()  returns FALSE (0000ms, 0820ms total)
T015C 001:210 JLINK_IsHalted()  returns FALSE (0000ms, 0820ms total)
T015C 001:211 JLINK_IsHalted()  returns FALSE (0000ms, 0820ms total)
T015C 001:212 JLINK_IsHalted()  returns FALSE (0000ms, 0820ms total)
T015C 001:213 JLINK_IsHalted()  returns FALSE (0000ms, 0820ms total)
T015C 001:230 JLINK_IsHalted()  returns FALSE (0000ms, 0820ms total)
T015C 001:231 JLINK_IsHalted()  returns FALSE (0000ms, 0820ms total)
T015C 001:232 JLINK_IsHalted()  returns FALSE (0000ms, 0820ms total)
T015C 001:234 JLINK_IsHalted()  returns FALSE (0000ms, 0820ms total)
T015C 001:235 JLINK_IsHalted()  returns FALSE (0000ms, 0820ms total)
T015C 001:236 JLINK_IsHalted() -- CPU_ReadMem(2 bytes @ 0x20000000)  returns TRUE (0003ms, 0823ms total)
T015C 001:239 JLINK_ReadReg(R15 (PC))  returns 0x20000000 (0000ms, 0820ms total)
T015C 001:239 JLINK_ClrBPEx(BPHandle = 0x0000000B)  returns 0x00 (0000ms, 0820ms total)
T015C 001:239 JLINK_ReadReg(R0)  returns 0x00000000 (0000ms, 0820ms total)
T015C 001:240 JLINK_WriteMem(0x20000170, 0x0290 Bytes, ...) - Data: 21 46 01 98 00 F0 98 F8 01 9D 07 E0 0A 98 01 21 ... -- CPU_WriteMem(656 bytes @ 0x20000170)  returns 0x290 (0004ms, 0824ms total)
T015C 001:244 JLINK_WriteMem(0x20000400, 0x0170 Bytes, ...) - Data: 80 18 94 1E 40 38 02 29 04 D0 01 29 04 D0 03 29 ... -- CPU_WriteMem(368 bytes @ 0x20000400)  returns 0x170 (0003ms, 0827ms total)
T015C 001:247 JLINK_WriteReg(R0, 0x08001C00)  returns 0x00 (0000ms, 0827ms total)
T015C 001:247 JLINK_WriteReg(R1, 0x00000400)  returns 0x00 (0000ms, 0827ms total)
T015C 001:247 JLINK_WriteReg(R2, 0x20000170)  returns 0x00 (0000ms, 0827ms total)
T015C 001:247 JLINK_WriteReg(R3, 0x00000000)  returns 0x00 (0000ms, 0827ms total)
T015C 001:247 JLINK_WriteReg(R4, 0x00000000)  returns 0x00 (0000ms, 0827ms total)
T015C 001:247 JLINK_WriteReg(R5, 0x00000000)  returns 0x00 (0000ms, 0827ms total)
T015C 001:247 JLINK_WriteReg(R6, 0x00000000)  returns 0x00 (0000ms, 0827ms total)
T015C 001:247 JLINK_WriteReg(R7, 0x00000000)  returns 0x00 (0000ms, 0827ms total)
T015C 001:247 JLINK_WriteReg(R8, 0x00000000)  returns 0x00 (0000ms, 0827ms total)
T015C 001:247 JLINK_WriteReg(R9, 0x2000016C)  returns 0x00 (0000ms, 0827ms total)
T015C 001:247 JLINK_WriteReg(R10, 0x00000000)  returns 0x00 (0000ms, 0827ms total)
T015C 001:247 JLINK_WriteReg(R11, 0x00000000)  returns 0x00 (0000ms, 0827ms total)
T015C 001:247 JLINK_WriteReg(R12, 0x00000000)  returns 0x00 (0000ms, 0827ms total)
T015C 001:247 JLINK_WriteReg(R13 (SP), 0x20001000)  returns 0x00 (0000ms, 0827ms total)
T015C 001:247 JLINK_WriteReg(R14, 0x20000001)  returns 0x00 (0000ms, 0827ms total)
T015C 001:247 JLINK_WriteReg(R15 (PC), 0x200000FA)  returns 0x00 (0000ms, 0827ms total)
T015C 001:247 JLINK_WriteReg(XPSR, 0x01000000)  returns 0x00 (0000ms, 0827ms total)
T015C 001:247 JLINK_WriteReg(MSP, 0x20001000)  returns 0x00 (0000ms, 0827ms total)
T015C 001:247 JLINK_WriteReg(PSP, 0x20001000)  returns 0x00 (0000ms, 0827ms total)
T015C 001:247 JLINK_WriteReg(CFBP, 0x00000000)  returns 0x00 (0000ms, 0827ms total)
T015C 001:247 JLINK_SetBPEx(Addr = 0x20000000, Type = 0xFFFFFFF2)  returns 0x0000000C (0000ms, 0827ms total)
T015C 001:247 JLINK_Go() (0003ms, 0830ms total)
T015C 001:250 JLINK_IsHalted()  returns FALSE (0001ms, 0831ms total)
T015C 001:252 JLINK_IsHalted()  returns FALSE (0000ms, 0830ms total)
T015C 001:253 JLINK_IsHalted()  returns FALSE (0000ms, 0830ms total)
T015C 001:254 JLINK_IsHalted()  returns FALSE (0000ms, 0830ms total)
T015C 001:255 JLINK_IsHalted()  returns FALSE (0000ms, 0830ms total)
T015C 001:256 JLINK_IsHalted()  returns FALSE (0000ms, 0830ms total)
T015C 001:257 JLINK_IsHalted()  returns FALSE (0000ms, 0830ms total)
T015C 001:258 JLINK_IsHalted()  returns FALSE (0000ms, 0830ms total)
T015C 001:259 JLINK_IsHalted()  returns FALSE (0000ms, 0830ms total)
T015C 001:260 JLINK_IsHalted()  returns FALSE (0000ms, 0830ms total)
T015C 001:261 JLINK_IsHalted()  returns FALSE (0000ms, 0830ms total)
T015C 001:262 JLINK_IsHalted()  returns FALSE (0000ms, 0830ms total)
T015C 001:263 JLINK_IsHalted()  returns FALSE (0000ms, 0830ms total)
T015C 001:264 JLINK_IsHalted()  returns FALSE (0000ms, 0830ms total)
T015C 001:265 JLINK_IsHalted()  returns FALSE (0000ms, 0830ms total)
T015C 001:266 JLINK_IsHalted()  returns FALSE (0000ms, 0830ms total)
T015C 001:267 JLINK_IsHalted()  returns FALSE (0000ms, 0830ms total)
T015C 001:268 JLINK_IsHalted()  returns FALSE (0000ms, 0830ms total)
T015C 001:269 JLINK_IsHalted()  returns FALSE (0000ms, 0830ms total)
T015C 001:270 JLINK_IsHalted()  returns FALSE (0000ms, 0830ms total)
T015C 001:271 JLINK_IsHalted()  returns FALSE (0000ms, 0830ms total)
T015C 001:272 JLINK_IsHalted()  returns FALSE (0000ms, 0830ms total)
T015C 001:273 JLINK_IsHalted()  returns FALSE (0000ms, 0830ms total)
T015C 001:274 JLINK_IsHalted()  returns FALSE (0000ms, 0830ms total)
T015C 001:275 JLINK_IsHalted()  returns FALSE (0000ms, 0830ms total)
T015C 001:276 JLINK_IsHalted()  returns FALSE (0000ms, 0830ms total)
T015C 001:277 JLINK_IsHalted()  returns FALSE (0000ms, 0830ms total)
T015C 001:278 JLINK_IsHalted()  returns FALSE (0000ms, 0830ms total)
T015C 001:279 JLINK_IsHalted()  returns FALSE (0000ms, 0830ms total)
T015C 001:280 JLINK_IsHalted() -- CPU_ReadMem(2 bytes @ 0x20000000)  returns TRUE (0003ms, 0833ms total)
T015C 001:283 JLINK_ReadReg(R15 (PC))  returns 0x20000000 (0000ms, 0830ms total)
T015C 001:283 JLINK_ClrBPEx(BPHandle = 0x0000000C)  returns 0x00 (0000ms, 0830ms total)
T015C 001:283 JLINK_ReadReg(R0)  returns 0x00000000 (0000ms, 0830ms total)
T015C 001:284 JLINK_WriteMem(0x20000170, 0x0290 Bytes, ...) - Data: 03 21 01 20 FF F7 3E FF 01 21 00 20 00 F0 46 F9 ... -- CPU_WriteMem(656 bytes @ 0x20000170)  returns 0x290 (0004ms, 0834ms total)
T015C 001:288 JLINK_WriteMem(0x20000400, 0x0170 Bytes, ...) - Data: F8 BD 00 00 FF DF 00 00 70 47 00 00 38 B5 3B 4C ... -- CPU_WriteMem(368 bytes @ 0x20000400)  returns 0x170 (0003ms, 0837ms total)
T015C 001:291 JLINK_WriteReg(R0, 0x08002000)  returns 0x00 (0000ms, 0837ms total)
T015C 001:291 JLINK_WriteReg(R1, 0x00000400)  returns 0x00 (0000ms, 0837ms total)
T015C 001:291 JLINK_WriteReg(R2, 0x20000170)  returns 0x00 (0000ms, 0837ms total)
T015C 001:291 JLINK_WriteReg(R3, 0x00000000)  returns 0x00 (0000ms, 0837ms total)
T015C 001:291 JLINK_WriteReg(R4, 0x00000000)  returns 0x00 (0000ms, 0837ms total)
T015C 001:291 JLINK_WriteReg(R5, 0x00000000)  returns 0x00 (0000ms, 0837ms total)
T015C 001:291 JLINK_WriteReg(R6, 0x00000000)  returns 0x00 (0000ms, 0837ms total)
T015C 001:291 JLINK_WriteReg(R7, 0x00000000)  returns 0x00 (0000ms, 0837ms total)
T015C 001:291 JLINK_WriteReg(R8, 0x00000000)  returns 0x00 (0000ms, 0837ms total)
T015C 001:291 JLINK_WriteReg(R9, 0x2000016C)  returns 0x00 (0000ms, 0837ms total)
T015C 001:291 JLINK_WriteReg(R10, 0x00000000)  returns 0x00 (0000ms, 0837ms total)
T015C 001:291 JLINK_WriteReg(R11, 0x00000000)  returns 0x00 (0000ms, 0837ms total)
T015C 001:291 JLINK_WriteReg(R12, 0x00000000)  returns 0x00 (0000ms, 0837ms total)
T015C 001:291 JLINK_WriteReg(R13 (SP), 0x20001000)  returns 0x00 (0000ms, 0837ms total)
T015C 001:291 JLINK_WriteReg(R14, 0x20000001)  returns 0x00 (0000ms, 0837ms total)
T015C 001:291 JLINK_WriteReg(R15 (PC), 0x200000FA)  returns 0x00 (0000ms, 0837ms total)
T015C 001:291 JLINK_WriteReg(XPSR, 0x01000000)  returns 0x00 (0000ms, 0837ms total)
T015C 001:291 JLINK_WriteReg(MSP, 0x20001000)  returns 0x00 (0000ms, 0837ms total)
T015C 001:291 JLINK_WriteReg(PSP, 0x20001000)  returns 0x00 (0000ms, 0837ms total)
T015C 001:291 JLINK_WriteReg(CFBP, 0x00000000)  returns 0x00 (0000ms, 0837ms total)
T015C 001:291 JLINK_SetBPEx(Addr = 0x20000000, Type = 0xFFFFFFF2)  returns 0x0000000D (0000ms, 0837ms total)
